rload	V(OUT)*I(R3)	V(out)	I(R3)
Step Information: Ifail=1  (Run: 1/4)
1.000000000000000e-020	8.049304e-019	8.971791e-020	8.971791e+000
1.047128548050900e-020	8.428656e-019	9.394619e-020	8.971791e+000
1.096478196143185e-020	8.825886e-019	9.837373e-020	8.971791e+000
1.148153621496883e-020	9.241837e-019	1.030099e-019	8.971791e+000
1.202264434617413e-020	9.677391e-019	1.078646e-019	8.971791e+000
1.258925411794168e-020	1.013347e-018	1.129482e-019	8.971791e+000
1.318256738556408e-020	1.061105e-018	1.182712e-019	8.971791e+000
1.380384264602885e-020	1.111113e-018	1.238452e-019	8.971791e+000
1.445439770745928e-020	1.163478e-018	1.296818e-019	8.971791e+000
1.513561248436209e-020	1.218311e-018	1.357935e-019	8.971791e+000
1.584893192461114e-020	1.275729e-018	1.421933e-019	8.971791e+000
1.659586907437562e-020	1.335852e-018	1.488947e-019	8.971791e+000
1.737800828749377e-020	1.398809e-018	1.559119e-019	8.971791e+000
1.819700858609985e-020	1.464732e-018	1.632598e-019	8.971791e+000
1.905460717963249e-020	1.533763e-018	1.709539e-019	8.971791e+000
1.995262314968881e-020	1.606047e-018	1.790108e-019	8.971791e+000
2.089296130854041e-020	1.681738e-018	1.874473e-019	8.971791e+000
2.187761623949555e-020	1.760996e-018	1.962814e-019	8.971791e+000
2.290867652767775e-020	1.843989e-018	2.055319e-019	8.971791e+000
2.398832919019493e-020	1.930893e-018	2.152183e-019	8.971791e+000
2.511886431509583e-020	2.021894e-018	2.253612e-019	8.971791e+000
2.630267991895385e-020	2.117183e-018	2.359821e-019	8.971791e+000
2.754228703338170e-020	2.216962e-018	2.471036e-019	8.971791e+000
2.884031503126610e-020	2.321445e-018	2.587493e-019	8.971791e+000
3.019951720402020e-020	2.430851e-018	2.709438e-019	8.971791e+000
3.162277660168383e-020	2.545413e-018	2.837129e-019	8.971791e+000
3.311311214825915e-020	2.665375e-018	2.970839e-019	8.971791e+000
3.467368504525321e-020	2.790990e-018	3.110851e-019	8.971791e+000
3.630780547701019e-020	2.922526e-018	3.257461e-019	8.971791e+000
3.801893963205618e-020	3.060260e-018	3.410980e-019	8.971791e+000
3.981071705534978e-020	3.204486e-018	3.571734e-019	8.971791e+000
4.168693834703361e-020	3.355508e-018	3.740065e-019	8.971791e+000
4.365158322401667e-020	3.513648e-018	3.916329e-019	8.971791e+000
4.570881896148758e-020	3.679242e-018	4.100900e-019	8.971791e+000
4.786300923226392e-020	3.852639e-018	4.294169e-019	8.971791e+000
5.011872336272732e-020	4.034208e-018	4.496547e-019	8.971791e+000
5.248074602497736e-020	4.224335e-018	4.708463e-019	8.971791e+000
5.495408738576257e-020	4.423421e-018	4.930366e-019	8.971791e+000
5.754399373371582e-020	4.631891e-018	5.162727e-019	8.971791e+000
6.025595860743591e-020	4.850185e-018	5.406038e-019	8.971791e+000
6.309573444801947e-020	5.078767e-018	5.660817e-019	8.971791e+000
6.606934480075976e-020	5.318122e-018	5.927604e-019	8.971791e+000
6.918309709189382e-020	5.568757e-018	6.206963e-019	8.971791e+000
7.244359600749920e-020	5.831205e-018	6.499488e-019	8.971791e+000
7.585775750291858e-020	6.106021e-018	6.805800e-019	8.971791e+000
7.943282347242836e-020	6.393789e-018	7.126547e-019	8.971791e+000
8.317637711026733e-020	6.695119e-018	7.462410e-019	8.971791e+000
8.709635899560830e-020	7.010650e-018	7.814103e-019	8.971791e+000
9.120108393559123e-020	7.341052e-018	8.182370e-019	8.971791e+000
9.549925860214387e-020	7.687025e-018	8.567994e-019	8.971791e+000
1.000000000000003e-019	8.049304e-018	8.971791e-019	8.971791e+000
1.047128548050903e-019	8.428655e-018	9.394618e-019	8.971791e+000
1.096478196143188e-019	8.825886e-018	9.837374e-019	8.971791e+000
1.148153621496886e-019	9.241837e-018	1.030099e-018	8.971791e+000
1.202264434617417e-019	9.677391e-018	1.078647e-018	8.971791e+000
1.258925411794171e-019	1.013347e-017	1.129482e-018	8.971791e+000
1.318256738556411e-019	1.061105e-017	1.182712e-018	8.971791e+000
1.380384264602890e-019	1.111113e-017	1.238452e-018	8.971791e+000
1.445439770745932e-019	1.163478e-017	1.296818e-018	8.971791e+000
1.513561248436213e-019	1.218311e-017	1.357935e-018	8.971791e+000
1.584893192461119e-019	1.275729e-017	1.421933e-018	8.971791e+000
1.659586907437567e-019	1.335852e-017	1.488947e-018	8.971791e+000
1.737800828749382e-019	1.398809e-017	1.559119e-018	8.971791e+000
1.819700858609990e-019	1.464732e-017	1.632598e-018	8.971791e+000
1.905460717963254e-019	1.533763e-017	1.709540e-018	8.971791e+000
1.995262314968887e-019	1.606047e-017	1.790108e-018	8.971791e+000
2.089296130854048e-019	1.681738e-017	1.874473e-018	8.971791e+000
2.187761623949561e-019	1.760996e-017	1.962814e-018	8.971791e+000
2.290867652767782e-019	1.843989e-017	2.055319e-018	8.971791e+000
2.398832919019500e-019	1.930893e-017	2.152183e-018	8.971791e+000
2.511886431509591e-019	2.021894e-017	2.253612e-018	8.971791e+000
2.630267991895393e-019	2.117182e-017	2.359821e-018	8.971791e+000
2.754228703338178e-019	2.216962e-017	2.471036e-018	8.971791e+000
2.884031503126618e-019	2.321444e-017	2.587493e-018	8.971791e+000
3.019951720402029e-019	2.430851e-017	2.709438e-018	8.971791e+000
3.162277660168394e-019	2.545413e-017	2.837129e-018	8.971791e+000
3.311311214825926e-019	2.665375e-017	2.970839e-018	8.971791e+000
3.467368504525333e-019	2.790990e-017	3.110851e-018	8.971791e+000
3.630780547701031e-019	2.922525e-017	3.257460e-018	8.971791e+000
3.801893963205630e-019	3.060260e-017	3.410980e-018	8.971791e+000
3.981071705534992e-019	3.204486e-017	3.571734e-018	8.971791e+000
4.168693834703375e-019	3.355508e-017	3.740065e-018	8.971791e+000
4.365158322401682e-019	3.513648e-017	3.916329e-018	8.971791e+000
4.570881896148774e-019	3.679242e-017	4.100900e-018	8.971791e+000
4.786300923226408e-019	3.852639e-017	4.294169e-018	8.971791e+000
5.011872336272750e-019	4.034208e-017	4.496547e-018	8.971791e+000
5.248074602497755e-019	4.224335e-017	4.708463e-018	8.971791e+000
5.495408738576276e-019	4.423421e-017	4.930366e-018	8.971791e+000
5.754399373371601e-019	4.631891e-017	5.162727e-018	8.971791e+000
6.025595860743612e-019	4.850185e-017	5.406038e-018	8.971791e+000
6.309573444801968e-019	5.078767e-017	5.660818e-018	8.971791e+000
6.606934480075998e-019	5.318122e-017	5.927604e-018	8.971791e+000
6.918309709189405e-019	5.568757e-017	6.206963e-018	8.971791e+000
7.244359600749944e-019	5.831205e-017	6.499488e-018	8.971791e+000
7.585775750291883e-019	6.106021e-017	6.805799e-018	8.971791e+000
7.943282347242863e-019	6.393789e-017	7.126546e-018	8.971791e+000
8.317637711026761e-019	6.695119e-017	7.462411e-018	8.971791e+000
8.709635899560860e-019	7.010650e-017	7.814103e-018	8.971791e+000
9.120108393559154e-019	7.341052e-017	8.182371e-018	8.971791e+000
9.549925860214419e-019	7.687025e-017	8.567994e-018	8.971791e+000
1.000000000000006e-018	8.049304e-017	8.971791e-018	8.971791e+000
1.047128548050906e-018	8.428656e-017	9.394619e-018	8.971791e+000
1.096478196143192e-018	8.825886e-017	9.837373e-018	8.971791e+000
1.148153621496890e-018	9.241837e-017	1.030099e-017	8.971791e+000
1.202264434617421e-018	9.677391e-017	1.078646e-017	8.971791e+000
1.258925411794175e-018	1.013347e-016	1.129482e-017	8.971791e+000
1.318256738556416e-018	1.061105e-016	1.182712e-017	8.971791e+000
1.380384264602894e-018	1.111113e-016	1.238452e-017	8.971791e+000
1.445439770745937e-018	1.163478e-016	1.296818e-017	8.971791e+000
1.513561248436219e-018	1.218311e-016	1.357936e-017	8.971791e+000
1.584893192461124e-018	1.275729e-016	1.421933e-017	8.971791e+000
1.659586907437572e-018	1.335852e-016	1.488947e-017	8.971791e+000
1.737800828749388e-018	1.398809e-016	1.559118e-017	8.971791e+000
1.819700858609997e-018	1.464732e-016	1.632598e-017	8.971791e+000
1.905460717963261e-018	1.533763e-016	1.709539e-017	8.971791e+000
1.995262314968894e-018	1.606047e-016	1.790108e-017	8.971791e+000
2.089296130854055e-018	1.681738e-016	1.874473e-017	8.971791e+000
2.187761623949569e-018	1.760996e-016	1.962814e-017	8.971791e+000
2.290867652767790e-018	1.843989e-016	2.055318e-017	8.971791e+000
2.398832919019509e-018	1.930893e-016	2.152183e-017	8.971791e+000
2.511886431509600e-018	2.021894e-016	2.253612e-017	8.971791e+000
2.630267991895403e-018	2.117182e-016	2.359821e-017	8.971791e+000
2.754228703338188e-018	2.216962e-016	2.471036e-017	8.971791e+000
2.884031503126629e-018	2.321444e-016	2.587493e-017	8.971791e+000
3.019951720402040e-018	2.430851e-016	2.709438e-017	8.971791e+000
3.162277660168405e-018	2.545413e-016	2.837129e-017	8.971791e+000
3.311311214825938e-018	2.665375e-016	2.970839e-017	8.971791e+000
3.467368504525345e-018	2.790990e-016	3.110851e-017	8.971791e+000
3.630780547701043e-018	2.922525e-016	3.257460e-017	8.971791e+000
3.801893963205643e-018	3.060260e-016	3.410980e-017	8.971791e+000
3.981071705535006e-018	3.204486e-016	3.571734e-017	8.971791e+000
4.168693834703389e-018	3.355508e-016	3.740065e-017	8.971791e+000
4.365158322401697e-018	3.513648e-016	3.916329e-017	8.971791e+000
4.570881896148790e-018	3.679242e-016	4.100900e-017	8.971791e+000
4.786300923226425e-018	3.852639e-016	4.294169e-017	8.971791e+000
5.011872336272767e-018	4.034208e-016	4.496547e-017	8.971791e+000
5.248074602497773e-018	4.224335e-016	4.708463e-017	8.971791e+000
5.495408738576295e-018	4.423421e-016	4.930366e-017	8.971791e+000
5.754399373371622e-018	4.631891e-016	5.162727e-017	8.971791e+000
6.025595860743633e-018	4.850185e-016	5.406039e-017	8.971791e+000
6.309573444801991e-018	5.078767e-016	5.660817e-017	8.971791e+000
6.606934480076022e-018	5.318122e-016	5.927603e-017	8.971791e+000
6.918309709189430e-018	5.568757e-016	6.206963e-017	8.971791e+000
7.244359600749970e-018	5.831205e-016	6.499488e-017	8.971791e+000
7.585775750291912e-018	6.106021e-016	6.805799e-017	8.971791e+000
7.943282347242893e-018	6.393789e-016	7.126547e-017	8.971791e+000
8.317637711026792e-018	6.695119e-016	7.462411e-017	8.971791e+000
8.709635899560892e-018	7.010650e-016	7.814103e-017	8.971791e+000
9.120108393559187e-018	7.341052e-016	8.182371e-017	8.971791e+000
9.549925860214455e-018	7.687025e-016	8.567994e-017	8.971791e+000
1.000000000000010e-017	8.049303e-016	8.971791e-017	8.971791e+000
1.047128548050910e-017	8.428656e-016	9.394618e-017	8.971791e+000
1.096478196143196e-017	8.825886e-016	9.837373e-017	8.971791e+000
1.148153621496895e-017	9.241837e-016	1.030099e-016	8.971791e+000
1.202264434617425e-017	9.677391e-016	1.078646e-016	8.971791e+000
1.258925411794180e-017	1.013347e-015	1.129482e-016	8.971791e+000
1.318256738556421e-017	1.061105e-015	1.182712e-016	8.971791e+000
1.380384264602900e-017	1.111113e-015	1.238452e-016	8.971791e+000
1.445439770745943e-017	1.163478e-015	1.296818e-016	8.971791e+000
1.513561248436225e-017	1.218311e-015	1.357936e-016	8.971791e+000
1.584893192461131e-017	1.275729e-015	1.421933e-016	8.971791e+000
1.659586907437579e-017	1.335852e-015	1.488947e-016	8.971791e+000
1.737800828749395e-017	1.398809e-015	1.559119e-016	8.971791e+000
1.819700858610004e-017	1.464732e-015	1.632598e-016	8.971791e+000
1.905460717963269e-017	1.533763e-015	1.709539e-016	8.971791e+000
1.995262314968902e-017	1.606047e-015	1.790108e-016	8.971791e+000
2.089296130854063e-017	1.681738e-015	1.874473e-016	8.971791e+000
2.187761623949578e-017	1.760996e-015	1.962814e-016	8.971791e+000
2.290867652767799e-017	1.843989e-015	2.055319e-016	8.971791e+000
2.398832919019518e-017	1.930893e-015	2.152183e-016	8.971791e+000
2.511886431509609e-017	2.021894e-015	2.253612e-016	8.971791e+000
2.630267991895413e-017	2.117182e-015	2.359821e-016	8.971791e+000
2.754228703338199e-017	2.216962e-015	2.471037e-016	8.971791e+000
2.884031503126640e-017	2.321444e-015	2.587493e-016	8.971791e+000
3.019951720402052e-017	2.430851e-015	2.709438e-016	8.971791e+000
3.162277660168417e-017	2.545413e-015	2.837129e-016	8.971791e+000
3.311311214825951e-017	2.665375e-015	2.970839e-016	8.971791e+000
3.467368504525359e-017	2.790990e-015	3.110851e-016	8.971791e+000
3.630780547701058e-017	2.922525e-015	3.257460e-016	8.971791e+000
3.801893963205659e-017	3.060260e-015	3.410980e-016	8.971791e+000
3.981071705535023e-017	3.204486e-015	3.571734e-016	8.971791e+000
4.168693834703407e-017	3.355508e-015	3.740065e-016	8.971791e+000
4.365158322401715e-017	3.513648e-015	3.916329e-016	8.971791e+000
4.570881896148809e-017	3.679242e-015	4.100900e-016	8.971791e+000
4.786300923226445e-017	3.852639e-015	4.294169e-016	8.971791e+000
5.011872336272787e-017	4.034208e-015	4.496547e-016	8.971791e+000
5.248074602497794e-017	4.224335e-015	4.708463e-016	8.971791e+000
5.495408738576317e-017	4.423421e-015	4.930366e-016	8.971791e+000
5.754399373371645e-017	4.631891e-015	5.162727e-016	8.971791e+000
6.025595860743657e-017	4.850185e-015	5.406038e-016	8.971791e+000
6.309573444802017e-017	5.078767e-015	5.660818e-016	8.971791e+000
6.606934480076048e-017	5.318122e-015	5.927603e-016	8.971791e+000
6.918309709189458e-017	5.568757e-015	6.206963e-016	8.971791e+000
7.244359600749999e-017	5.831205e-015	6.499488e-016	8.971791e+000
7.585775750291941e-017	6.106021e-015	6.805800e-016	8.971791e+000
7.943282347242925e-017	6.393789e-015	7.126547e-016	8.971791e+000
8.317637711026825e-017	6.695119e-015	7.462411e-016	8.971791e+000
8.709635899560927e-017	7.010650e-015	7.814103e-016	8.971791e+000
9.120108393559225e-017	7.341052e-015	8.182371e-016	8.971791e+000
9.549925860214493e-017	7.687025e-015	8.567994e-016	8.971791e+000
1.000000000000014e-016	8.049304e-015	8.971791e-016	8.971791e+000
1.047128548050914e-016	8.428655e-015	9.394618e-016	8.971791e+000
1.096478196143201e-016	8.825886e-015	9.837373e-016	8.971791e+000
1.148153621496899e-016	9.241837e-015	1.030099e-015	8.971791e+000
1.202264434617430e-016	9.677391e-015	1.078646e-015	8.971791e+000
1.258925411794186e-016	1.013347e-014	1.129482e-015	8.971791e+000
1.318256738556427e-016	1.061105e-014	1.182712e-015	8.971791e+000
1.380384264602905e-016	1.111113e-014	1.238452e-015	8.971791e+000
1.445439770745949e-016	1.163478e-014	1.296818e-015	8.971791e+000
1.513561248436231e-016	1.218311e-014	1.357935e-015	8.971791e+000
1.584893192461137e-016	1.275729e-014	1.421933e-015	8.971791e+000
1.659586907437586e-016	1.335852e-014	1.488947e-015	8.971791e+000
1.737800828749402e-016	1.398809e-014	1.559119e-015	8.971791e+000
1.819700858610011e-016	1.464732e-014	1.632598e-015	8.971791e+000
1.905460717963276e-016	1.533763e-014	1.709539e-015	8.971791e+000
1.995262314968910e-016	1.606047e-014	1.790108e-015	8.971791e+000
2.089296130854071e-016	1.681738e-014	1.874473e-015	8.971791e+000
2.187761623949586e-016	1.760996e-014	1.962814e-015	8.971791e+000
2.290867652767808e-016	1.843989e-014	2.055318e-015	8.971791e+000
2.398832919019527e-016	1.930894e-014	2.152183e-015	8.971791e+000
2.511886431509619e-016	2.021894e-014	2.253612e-015	8.971791e+000
2.630267991895423e-016	2.117183e-014	2.359822e-015	8.971791e+000
2.754228703338210e-016	2.216962e-014	2.471037e-015	8.971791e+000
2.884031503126652e-016	2.321444e-014	2.587493e-015	8.971791e+000
3.019951720402064e-016	2.430851e-014	2.709438e-015	8.971791e+000
3.162277660168430e-016	2.545413e-014	2.837129e-015	8.971791e+000
3.311311214825964e-016	2.665375e-014	2.970839e-015	8.971791e+000
3.467368504525372e-016	2.790990e-014	3.110850e-015	8.971791e+000
3.630780547701072e-016	2.922526e-014	3.257460e-015	8.971791e+000
3.801893963205674e-016	3.060260e-014	3.410980e-015	8.971791e+000
3.981071705535038e-016	3.204485e-014	3.571734e-015	8.971791e+000
4.168693834703422e-016	3.355508e-014	3.740065e-015	8.971791e+000
4.365158322401731e-016	3.513648e-014	3.916329e-015	8.971791e+000
4.570881896148826e-016	3.679242e-014	4.100900e-015	8.971791e+000
4.786300923226463e-016	3.852639e-014	4.294169e-015	8.971791e+000
5.011872336272806e-016	4.034208e-014	4.496547e-015	8.971791e+000
5.248074602497814e-016	4.224334e-014	4.708463e-015	8.971791e+000
5.495408738576338e-016	4.423421e-014	4.930366e-015	8.971791e+000
5.754399373371666e-016	4.631891e-014	5.162727e-015	8.971791e+000
6.025595860743680e-016	4.850185e-014	5.406039e-015	8.971791e+000
6.309573444802040e-016	5.078767e-014	5.660817e-015	8.971791e+000
6.606934480076073e-016	5.318122e-014	5.927603e-015	8.971791e+000
6.918309709189484e-016	5.568758e-014	6.206963e-015	8.971791e+000
7.244359600750026e-016	5.831205e-014	6.499488e-015	8.971791e+000
7.585775750291969e-016	6.106021e-014	6.805800e-015	8.971791e+000
7.943282347242952e-016	6.393789e-014	7.126546e-015	8.971791e+000
8.317637711026855e-016	6.695119e-014	7.462410e-015	8.971791e+000
8.709635899560959e-016	7.010650e-014	7.814103e-015	8.971791e+000
9.120108393559257e-016	7.341052e-014	8.182370e-015	8.971791e+000
9.549925860214527e-016	7.687025e-014	8.567994e-015	8.971791e+000
1.000000000000018e-015	8.049303e-014	8.971791e-015	8.971791e+000
1.047128548050918e-015	8.428656e-014	9.394619e-015	8.971791e+000
1.096478196143205e-015	8.825886e-014	9.837373e-015	8.971791e+000
1.148153621496903e-015	9.241837e-014	1.030099e-014	8.971791e+000
1.202264434617435e-015	9.677391e-014	1.078646e-014	8.971791e+000
1.258925411794190e-015	1.013347e-013	1.129482e-014	8.971791e+000
1.318256738556431e-015	1.061105e-013	1.182712e-014	8.971791e+000
1.380384264602910e-015	1.111113e-013	1.238452e-014	8.971791e+000
1.445439770745954e-015	1.163478e-013	1.296818e-014	8.971791e+000
1.513561248436236e-015	1.218311e-013	1.357936e-014	8.971791e+000
1.584893192461143e-015	1.275729e-013	1.421933e-014	8.971791e+000
1.659586907437591e-015	1.335852e-013	1.488947e-014	8.971791e+000
1.737800828749408e-015	1.398809e-013	1.559119e-014	8.971791e+000
1.819700858610017e-015	1.464732e-013	1.632598e-014	8.971791e+000
1.905460717963283e-015	1.533763e-013	1.709539e-014	8.971791e+000
1.995262314968917e-015	1.606047e-013	1.790108e-014	8.971791e+000
2.089296130854079e-015	1.681738e-013	1.874473e-014	8.971791e+000
2.187761623949594e-015	1.760996e-013	1.962814e-014	8.971791e+000
2.290867652767817e-015	1.843989e-013	2.055319e-014	8.971791e+000
2.398832919019537e-015	1.930894e-013	2.152183e-014	8.971791e+000
2.511886431509628e-015	2.021894e-013	2.253612e-014	8.971791e+000
2.630267991895432e-015	2.117183e-013	2.359821e-014	8.971791e+000
2.754228703338220e-015	2.216962e-013	2.471036e-014	8.971791e+000
2.884031503126662e-015	2.321444e-013	2.587493e-014	8.971791e+000
3.019951720402075e-015	2.430851e-013	2.709437e-014	8.971791e+000
3.162277660168441e-015	2.545413e-013	2.837129e-014	8.971791e+000
3.311311214825976e-015	2.665375e-013	2.970839e-014	8.971791e+000
3.467368504525385e-015	2.790990e-013	3.110850e-014	8.971791e+000
3.630780547701085e-015	2.922525e-013	3.257460e-014	8.971791e+000
3.801893963205687e-015	3.060260e-013	3.410980e-014	8.971791e+000
3.981071705535052e-015	3.204485e-013	3.571734e-014	8.971791e+000
4.168693834703437e-015	3.355508e-013	3.740065e-014	8.971791e+000
4.365158322401747e-015	3.513648e-013	3.916329e-014	8.971791e+000
4.570881896148841e-015	3.679241e-013	4.100900e-014	8.971791e+000
4.786300923226479e-015	3.852639e-013	4.294169e-014	8.971791e+000
5.011872336272823e-015	4.034208e-013	4.496547e-014	8.971791e+000
5.248074602497832e-015	4.224334e-013	4.708463e-014	8.971791e+000
5.495408738576357e-015	4.423421e-013	4.930366e-014	8.971791e+000
5.754399373371687e-015	4.631891e-013	5.162727e-014	8.971791e+000
6.025595860743701e-015	4.850185e-013	5.406039e-014	8.971791e+000
6.309573444802062e-015	5.078767e-013	5.660817e-014	8.971791e+000
6.606934480076096e-015	5.318122e-013	5.927604e-014	8.971791e+000
6.918309709189508e-015	5.568757e-013	6.206963e-014	8.971791e+000
7.244359600750051e-015	5.831205e-013	6.499488e-014	8.971791e+000
7.585775750291996e-015	6.106021e-013	6.805799e-014	8.971791e+000
7.943282347242981e-015	6.393789e-013	7.126547e-014	8.971791e+000
8.317637711026884e-015	6.695119e-013	7.462410e-014	8.971791e+000
8.709635899560990e-015	7.010650e-013	7.814103e-014	8.971791e+000
9.120108393559291e-015	7.341052e-013	8.182371e-014	8.971791e+000
9.549925860214562e-015	7.687025e-013	8.567994e-014	8.971791e+000
1.000000000000021e-014	8.049303e-013	8.971791e-014	8.971791e+000
